Sample in Buffer,Sample in Window,TRIGGER,fircomp_bd_i/system_ila_0/inst/probe0_1[17:0],fircomp_bd_i/system_ila_0/inst/probe1_1[13:0]
Radix - UNSIGNED,UNSIGNED,UNSIGNED,SIGNED,SIGNED
0,0,0,54,-583
1,1,0,54,132
2,2,0,54,-41
3,3,0,22,678
4,4,0,22,745
5,5,0,22,-73
6,6,0,22,-5
7,7,0,22,445
8,8,0,22,510
9,9,0,22,-637
10,10,0,22,178
11,11,0,22,-330
12,12,0,22,215
13,13,0,-17,-1069
14,14,0,-17,412
15,15,0,-17,-291
16,16,0,-17,-304
17,17,0,-17,711
18,18,0,-17,-276
19,19,0,-17,-378
20,20,0,-17,686
21,21,0,-17,-4
22,22,0,-17,-9
23,23,0,-49,-582
24,24,0,-49,-79
25,25,0,-49,509
26,26,0,-49,-306
27,27,0,-49,-279
28,28,0,-49,-526
29,29,0,-49,-72
30,30,0,-49,-32
31,31,0,-49,459
32,32,0,-49,-813
33,33,0,-62,-290
34,34,0,-62,692
35,35,0,-62,683
36,36,0,-62,-549
37,37,0,-62,152
38,38,0,-62,-309
39,39,0,-62,709
40,40,0,-62,-44
41,41,0,-62,454
42,42,0,-62,-19
43,43,0,-50,422
44,44,0,-50,162
45,45,0,-50,-358
46,46,0,-50,151
47,47,0,-50,181
48,48,0,-50,472
49,49,0,-50,-267
50,50,0,-50,466
51,51,0,-50,-854
52,52,0,-50,-572
53,53,0,-19,-43
54,54,0,-19,155
55,55,0,-19,681
56,56,0,-19,474
57,57,0,-19,230
58,58,0,-19,234
59,59,0,-19,244
60,60,0,-19,-371
61,61,0,-19,749
62,62,0,-19,-289
63,63,0,19,-82
64,64,0,19,211
65,65,0,19,-104
66,66,0,19,-528
67,67,0,19,386
68,68,0,19,-841
69,69,0,19,148
70,70,0,19,-363
71,71,0,19,-17
72,72,0,19,-349
73,73,0,49,202
74,74,0,49,675
75,75,0,49,218
76,76,0,49,-528
77,77,0,49,-361
78,78,0,49,731
79,79,0,49,-782
80,80,0,49,-125
81,81,0,49,-25
82,82,0,49,445
83,83,0,59,233
84,84,0,59,-21
85,85,0,59,1208
86,86,0,59,131
87,87,0,59,-518
88,88,0,59,-527
89,89,0,59,-583
90,90,0,59,-590
91,91,0,59,141
92,92,0,59,406
93,93,0,46,252
94,94,0,46,-565
95,95,0,46,-347
96,96,0,46,-10
97,97,0,46,-118
98,98,0,46,-369
99,99,0,46,253
100,100,0,46,-323
101,101,0,46,663
102,102,0,46,201
103,103,0,15,-124
104,104,0,15,-335
105,105,0,15,-275
106,106,0,15,140
107,107,0,15,490
108,108,0,15,-594
109,109,0,15,-109
110,110,0,15,404
111,111,0,15,-268
112,112,0,15,205
113,113,0,-21,485
114,114,0,-21,-809
115,115,0,-21,-383
116,116,0,-21,-113
117,117,0,-21,-40
118,118,0,-21,-295
119,119,0,-21,-588
120,120,0,-21,182
121,121,0,-21,-13
122,122,0,-21,711
123,123,0,-48,445
124,124,0,-48,-574
125,125,0,-48,-74
126,126,0,-48,-89
127,127,0,-48,-329
128,128,0,-48,-346
129,129,0,-48,-818
130,130,0,-48,-42
131,131,0,-48,-632
132,132,0,-48,-73
133,133,0,-56,898
134,134,0,-56,-573
135,135,0,-56,251
136,136,0,-56,-65
137,137,0,-56,-576
138,138,0,-56,223
139,139,0,-56,-1039
140,140,0,-56,-127
141,141,0,-56,740
142,142,0,-56,-109
143,143,0,-42,-105
144,144,0,-42,-268
145,145,0,-42,-529
146,146,0,-42,-125
147,147,0,-42,-381
148,148,0,-42,-323
149,149,0,-42,-384
150,150,0,-42,446
151,151,0,-42,-845
152,152,0,-42,-51
153,153,0,-12,-1060
154,154,0,-12,937
155,155,0,-12,130
156,156,0,-12,-292
157,157,0,-12,709
158,158,0,-12,-520
159,159,0,-12,-8
160,160,0,-12,-295
161,161,0,-12,-848
162,162,0,-12,-280
163,163,0,23,-578
164,164,0,23,-374
165,165,0,23,-328
166,166,0,23,415
167,167,0,23,-595
168,168,0,23,-40
169,169,0,23,-16
170,170,0,23,-333
171,171,0,23,-571
172,172,0,23,-345
173,173,0,48,-106
174,174,0,48,-794
175,175,0,48,-260
176,176,0,48,507
177,177,0,48,-536
178,178,0,48,-515
179,179,0,48,-72
180,180,0,48,473
181,181,0,48,-24
182,182,0,48,453
183,183,0,54,135
184,184,0,54,202
185,185,0,54,-346
186,186,0,54,215
187,187,0,54,-797
188,188,0,54,-373
189,189,0,54,-557
190,190,0,54,744
191,191,0,54,467
192,192,0,54,640
193,193,0,38,-521
194,194,0,38,705
195,195,0,38,-39
196,196,0,38,505
197,197,0,38,-44
198,198,0,38,407
199,199,0,38,167
200,200,0,38,-91
201,201,0,38,-82
202,202,0,38,-81
203,203,0,8,-125
204,204,0,8,133
205,205,0,8,-871
206,206,0,8,-330
207,207,0,8,-41
208,208,0,8,452
209,209,0,8,-803
210,210,0,8,-523
211,211,0,8,-106
212,212,0,8,250
213,213,0,-25,-371
214,214,0,-25,714
215,215,0,-25,479
216,216,0,-25,-333
217,217,0,-25,-530
218,218,0,-25,-64
219,219,0,-25,391
220,220,0,-25,-125
221,221,0,-25,190
222,222,0,-25,-818
223,223,0,-48,129
224,224,0,-48,469
225,225,0,-48,187
226,226,0,-48,387
227,227,0,-48,-78
228,228,0,-48,162
229,229,0,-48,397
230,230,0,-48,-567
231,231,0,-48,-545
232,232,0,-48,-823
233,233,0,-51,-783
234,234,0,-51,212
235,235,0,-51,-103
236,236,0,-51,-611
237,237,0,-51,449
238,238,0,-51,246
239,239,0,-51,-337
240,240,0,-51,700
241,241,0,-51,686
242,242,0,-51,429
243,243,0,-34,-293
244,244,0,-34,1020
245,245,0,-34,195
246,246,0,-34,-87
247,247,0,-34,-368
248,248,0,-34,488
249,249,0,-34,-820
250,250,0,-34,-33
251,251,0,-34,178
252,252,0,-34,-837
253,253,0,-4,-84
254,254,0,-4,397
255,255,0,-4,-376
256,256,0,-4,-637
257,257,0,-4,-373
258,258,0,-4,687
259,259,0,-4,-849
260,260,0,-4,-116
261,261,0,-4,-377
262,262,0,-4,498
263,263,0,27,-553
264,264,0,27,-268
265,265,0,27,233
266,266,0,27,255
267,267,0,27,-522
268,268,0,27,128
269,269,0,27,188
270,270,0,27,-103
271,271,0,27,-347
272,272,0,27,146
273,273,0,48,-24
274,274,0,48,641
275,275,0,48,-258
276,276,0,48,663
277,277,0,48,178
278,278,0,48,-1
279,279,0,48,194
280,280,0,48,438
281,281,0,48,142
282,282,0,48,133
283,283,0,49,-833
284,284,0,49,-531
285,285,0,49,500
286,286,0,49,-11
287,287,0,49,701
288,288,0,49,425
289,289,0,49,169
290,290,0,49,230
291,291,0,49,-57
292,292,0,49,487
293,293,0,30,749
294,294,0,30,-276
295,295,0,30,394
296,296,0,30,145
297,297,0,30,414
298,298,0,30,-349
299,299,0,30,216
300,300,0,30,647
301,301,0,30,180
302,302,0,30,155
303,303,0,0,-352
304,304,0,0,-25
305,305,0,0,-628
306,306,0,0,210
307,307,0,0,-382
308,308,0,0,738
309,309,0,0,-571
310,310,0,0,-24
311,311,0,0,180
312,312,0,0,683
313,313,0,-29,643
314,314,0,-29,-633
315,315,0,-29,152
316,316,0,-29,-830
317,317,0,-29,419
318,318,0,-29,-796
319,319,0,-29,-383
320,320,0,-29,-533
321,321,0,-29,-109
322,322,0,-29,440
323,323,0,-47,-26
324,324,0,-47,-313
325,325,0,-47,-785
326,326,0,-47,-300
327,327,0,-47,505
328,328,0,-47,-377
329,329,0,-47,162
330,330,0,-47,662
331,331,0,-47,416
332,332,0,-47,446
333,333,0,-46,-299
334,334,0,-46,194
335,335,0,-46,-1
336,336,0,-46,407
337,337,0,-46,181
338,338,0,-46,-533
339,339,0,-46,403
340,340,0,-46,142
341,341,0,-46,215
342,342,0,-46,-128
343,343,0,-26,-44
344,344,0,-26,-89
345,345,0,-26,-45
346,346,0,-26,-112
347,347,0,-26,162
348,348,0,-26,474
349,349,0,-26,-521
350,350,0,-26,227
351,351,0,-26,-514
352,352,0,-26,134
353,353,0,4,-571
354,354,0,4,-538
355,355,0,4,-333
356,356,0,4,-802
357,357,0,4,155
358,358,0,4,-522
359,359,0,4,-65
360,360,0,4,-106
361,361,0,4,-561
362,362,0,4,-607
363,363,0,32,490
364,364,0,32,-305
365,365,0,32,433
366,366,0,32,471
367,367,0,32,-295
368,368,0,32,472
369,369,0,32,-105
370,370,0,32,-299
371,371,0,32,-380
372,372,0,32,-113
373,373,0,46,699
374,374,0,46,145
375,375,0,46,236
376,376,0,46,-299
377,377,0,46,-314
378,378,0,46,-587
379,379,0,46,-43
380,380,0,46,393
381,381,0,46,-537
382,382,0,46,133
383,383,0,43,418
384,384,0,43,155
385,385,0,43,444
386,386,0,43,421
387,387,0,43,440
388,388,0,43,985
389,389,0,43,-114
390,390,0,43,-794
391,391,0,43,-324
392,392,0,43,-554
393,393,0,22,232
394,394,0,22,132
395,395,0,22,473
396,396,0,22,-349
397,397,0,22,956
398,398,0,22,242
399,399,0,22,392
400,400,0,22,-519
401,401,0,22,-612
402,402,0,22,-579
403,403,0,-8,-374
404,404,0,-8,-307
405,405,0,-8,-540
406,406,0,-8,-384
407,407,0,-8,-336
408,408,0,-8,179
409,409,0,-8,-381
410,410,0,-8,-44
411,411,0,-8,-342
412,412,0,-8,178
413,413,0,-34,-92
414,414,0,-34,641
415,415,0,-34,694
416,416,0,-34,-601
417,417,0,-34,433
418,418,0,-34,666
419,419,0,-34,425
420,420,0,-34,424
421,421,0,-34,-17
422,422,0,-34,-274
423,423,0,-46,-81
424,424,0,-46,925
425,425,0,-46,130
426,426,0,-46,-572
427,427,0,-46,-582
428,428,0,-46,-802
429,429,0,-46,-370
430,430,0,-46,-290
431,431,0,-46,-571
432,432,0,-46,-96
433,433,0,-40,403
434,434,0,-40,-789
435,435,0,-40,473
436,436,0,-40,250
437,437,0,-40,-583
438,438,0,-40,-378
439,439,0,-40,-569
440,440,0,-40,462
441,441,0,-40,-6
442,442,0,-40,150
443,443,0,-18,-3
444,444,0,-18,198
445,445,0,-18,-266
446,446,0,-18,477
447,447,0,-18,480
448,448,0,-18,729
449,449,0,-18,215
450,450,0,-18,-88
451,451,0,-18,204
452,452,0,-18,241
453,453,0,12,392
454,454,0,12,-123
455,455,0,12,-267
456,456,0,12,-99
457,457,0,12,-835
458,458,0,12,160
459,459,0,12,174
460,460,0,12,-49
461,461,0,12,439
462,462,0,12,-22
463,463,0,36,-519
464,464,0,36,666
465,465,0,36,-27
466,466,0,36,-38
467,467,0,36,687
468,468,0,36,153
469,469,0,36,-536
470,470,0,36,-532
471,471,0,36,-305
472,472,0,36,931
473,473,0,46,175
474,474,0,46,-523
475,475,0,46,-513
476,476,0,46,-589
477,477,0,46,490
478,478,0,46,-104
479,479,0,46,482
480,480,0,46,245
481,481,0,46,446
482,482,0,46,-308
483,483,0,37,-127
484,484,0,37,134
485,485,0,37,-61
486,486,0,37,-40
487,487,0,37,140
488,488,0,37,502
489,489,0,37,168
490,490,0,37,688
491,491,0,37,167
492,492,0,37,460
493,493,0,14,695
494,494,0,14,-342
495,495,0,14,145
496,496,0,14,-299
497,497,0,14,-105
498,498,0,14,-373
499,499,0,14,-556
500,500,0,14,-105
501,501,0,14,-290
502,502,0,14,216
503,503,0,-16,-108
504,504,0,-16,491
505,505,0,-16,-620
506,506,0,-16,184
507,507,0,-16,-297
508,508,0,-16,411
509,509,0,-16,194
510,510,0,-16,141
511,511,0,-16,-110
512,512,0,-16,456
513,513,0,-38,-75
514,514,0,-38,-88
515,515,0,-38,453
516,516,0,-38,-357
517,517,0,-38,-45
518,518,0,-38,-267
519,519,0,-38,-330
520,520,0,-38,-258
521,521,0,-38,-774
522,522,0,-38,466
523,523,0,-45,-23
524,524,0,-45,197
525,525,0,-45,-292
526,526,0,-45,947
527,527,0,-45,-312
528,528,0,-45,-123
529,529,0,-45,158
530,530,0,-45,-375
531,531,0,-45,-333
532,532,0,-45,-75
533,533,0,-34,-356
534,534,0,-34,387
535,535,0,-34,161
536,536,0,-34,-612
537,537,0,-34,697
538,538,0,-34,242
539,539,0,-34,-121
540,540,0,-34,385
541,541,0,-34,187
542,542,0,-34,155
543,543,0,-9,-371
544,544,0,-9,385
545,545,0,-9,-798
546,546,0,-9,-284
547,547,0,-9,160
548,548,0,-9,657
549,549,0,-9,495
550,550,0,-9,184
551,551,0,-9,-636
552,552,0,-9,-639
553,553,0,19,-558
554,554,0,19,235
555,555,0,19,-836
556,556,0,19,-309
557,557,0,19,214
558,558,0,19,-560
559,559,0,19,405
560,560,0,19,-55
561,561,0,19,-583
562,562,0,19,441
563,563,0,40,408
564,564,0,40,474
565,565,0,40,-57
566,566,0,40,-64
567,567,0,40,140
568,568,0,40,901
569,569,0,40,-41
570,570,0,40,476
571,571,0,40,-844
572,572,0,40,-564
573,573,0,45,-7
574,574,0,45,652
575,575,0,45,-265
576,576,0,45,-17
577,577,0,45,178
578,578,0,45,437
579,579,0,45,225
580,580,0,45,-96
581,581,0,45,-583
582,582,0,45,182
583,583,0,32,241
584,584,0,32,189
585,585,0,32,-803
586,586,0,32,510
587,587,0,32,473
588,588,0,32,-90
589,589,0,32,-799
590,590,0,32,640
591,591,0,32,-278
592,592,0,32,-110
593,593,0,5,-8
594,594,0,5,-779
595,595,0,5,189
596,596,0,5,234
597,597,0,5,-619
598,598,0,5,137
599,599,0,5,501
600,600,0,5,251
601,601,0,5,155
602,602,0,5,483
603,603,0,-23,-640
604,604,0,-23,486
605,605,0,-23,-556
606,606,0,-23,-300
607,607,0,-23,-632
608,608,0,-23,206
609,609,0,-23,-535
610,610,0,-23,-293
611,611,0,-23,396
612,612,0,-23,235
613,613,0,-42,227
614,614,0,-42,-381
615,615,0,-42,-590
616,616,0,-42,130
617,617,0,-42,-528
618,618,0,-42,-546
619,619,0,-42,1004
620,620,0,-42,445
621,621,0,-42,208
622,622,0,-42,-342
623,623,0,-45,405
624,624,0,-45,-569
625,625,0,-45,-337
626,626,0,-45,493
627,627,0,-45,-109
628,628,0,-45,470
629,629,0,-45,735
630,630,0,-45,-629
631,631,0,-45,691
632,632,0,-45,149
633,633,0,-29,-860
634,634,0,-29,-260
635,635,0,-29,143
636,636,0,-29,-48
637,637,0,-29,430
638,638,0,-29,-296
639,639,0,-29,-558
640,640,0,-29,-856
641,641,0,-29,-574
642,642,0,-29,-822
643,643,0,-1,235
644,644,0,-1,-47
645,645,0,-1,460
646,646,0,-1,641
647,647,0,-1,672
648,648,0,-1,-97
649,649,0,-1,-583
650,650,0,-1,-627
651,651,0,-1,-371
652,652,0,-1,135
653,653,0,27,-336
654,654,0,27,400
655,655,0,27,-848
656,656,0,27,-363
657,657,0,27,-572
658,658,0,27,-111
659,659,0,27,-561
660,660,0,27,-305
661,661,0,27,-269
662,662,0,27,216
663,663,0,45,-786
664,664,0,45,-86
665,665,0,45,-878
666,666,0,45,-28
667,667,0,45,-63
668,668,0,45,663
669,669,0,45,452
670,670,0,45,190
671,671,0,45,164
672,672,0,45,245
673,673,0,44,-623
674,674,0,44,-118
675,675,0,44,-293
676,676,0,44,-313
677,677,0,44,473
678,678,0,44,734
679,679,0,44,438
680,680,0,44,-27
681,681,0,44,-115
682,682,0,44,713
683,683,0,26,-3
684,684,0,26,708
685,685,0,26,-45
686,686,0,26,-106
687,687,0,26,-546
688,688,0,26,-77
689,689,0,26,-12
690,690,0,26,418
691,691,0,26,-123
692,692,0,26,142
693,693,0,-3,-261
694,694,0,-3,-774
695,695,0,-3,656
696,696,0,-3,728
697,697,0,-3,963
698,698,0,-3,-91
699,699,0,-3,738
700,700,0,-3,-372
701,701,0,-3,169
702,702,0,-3,416
703,703,0,-31,495
704,704,0,-31,-35
705,705,0,-31,443
706,706,0,-31,-366
707,707,0,-31,197
708,708,0,-31,-264
709,709,0,-31,-36
710,710,0,-31,-770
711,711,0,-31,489
712,712,0,-31,-364
713,713,0,-47,232
714,714,0,-47,-581
715,715,0,-47,-573
716,716,0,-47,139
717,717,0,-47,-368
718,718,0,-47,208
719,719,0,-47,-587
720,720,0,-47,464
721,721,0,-47,461
722,722,0,-47,174
723,723,0,-44,-528
724,724,0,-44,393
725,725,0,-44,-575
726,726,0,-44,386
727,727,0,-44,-522
728,728,0,-44,230
729,729,0,-44,-362
730,730,0,-44,1206
731,731,0,-44,450
732,732,0,-44,971
733,733,0,-24,717
734,734,0,-24,-63
735,735,0,-24,-813
736,736,0,-24,-789
737,737,0,-24,-120
738,738,0,-24,-75
739,739,0,-24,151
740,740,0,-24,150
741,741,0,-24,164
742,742,0,-24,-588
743,743,0,7,-383
744,744,0,7,-567
745,745,0,7,150
746,746,0,7,706
747,747,0,7,-55
748,748,0,7,137
749,749,0,7,-777
750,750,0,7,-358
751,751,0,7,748
752,752,0,7,-377
753,753,0,35,640
754,754,0,35,679
755,755,0,35,-336
756,756,0,35,205
757,757,0,35,141
758,758,0,35,-274
759,759,0,35,473
760,760,0,35,-288
761,761,0,35,247
762,762,0,35,465
763,763,0,49,-68
764,764,0,49,-294
765,765,0,49,242
766,766,0,49,-378
767,767,0,49,-1098
768,768,0,49,476
769,769,0,49,-353
770,770,0,49,426
771,771,0,49,172
772,772,0,49,235
773,773,0,44,-559
774,774,0,44,-356
775,775,0,44,399
776,776,0,44,-378
777,777,0,44,-630
778,778,0,44,163
779,779,0,44,-263
780,780,0,44,159
781,781,0,44,-375
782,782,0,44,670
783,783,0,21,-618
784,784,0,21,711
785,785,0,21,-6
786,786,0,21,746
787,787,0,21,163
788,788,0,21,145
789,789,0,21,684
790,790,0,21,-62
791,791,0,21,431
792,792,0,21,-595
793,793,0,-11,449
794,794,0,-11,-126
795,795,0,-11,472
796,796,0,-11,732
797,797,0,-11,-573
798,798,0,-11,-563
799,799,0,-11,-550
800,800,0,-11,237
801,801,0,-11,131
802,802,0,-11,468
803,803,0,-39,-555
804,804,0,-39,-377
805,805,0,-39,-84
806,806,0,-39,-321
807,807,0,-39,500
808,808,0,-39,-4
809,809,0,-39,-49
810,810,0,-39,510
811,811,0,-39,-106
812,812,0,-39,-39
813,813,0,-51,492
814,814,0,-51,180
815,815,0,-51,-93
816,816,0,-51,-15
817,817,0,-51,-377
818,818,0,-51,180
819,819,0,-51,-339
820,820,0,-51,438
821,821,0,-51,-353
822,822,0,-51,-588
823,823,0,-43,-382
824,824,0,-43,-616
825,825,0,-43,211
826,826,0,-43,-559
827,827,0,-43,487
828,828,0,-43,211
829,829,0,-43,389
830,830,0,-43,927
831,831,0,-43,-529
832,832,0,-43,-335
833,833,0,-18,-776
834,834,0,-18,487
835,835,0,-18,709
836,836,0,-18,487
837,837,0,-18,391
838,838,0,-18,-603
839,839,0,-18,495
840,840,0,-18,404
841,841,0,-18,178
842,842,0,-18,-867
843,843,0,15,943
844,844,0,15,151
845,845,0,15,138
846,846,0,15,-864
847,847,0,15,960
848,848,0,15,680
849,849,0,15,-365
850,850,0,15,390
851,851,0,15,-341
852,852,0,15,409
853,853,0,42,420
854,854,0,42,-338
855,855,0,42,-795
856,856,0,42,233
857,857,0,42,-520
858,858,0,42,-372
859,859,0,42,135
860,860,0,42,480
861,861,0,42,197
862,862,0,42,-46
863,863,0,53,-345
864,864,0,53,419
865,865,0,53,-518
866,866,0,53,-308
867,867,0,53,393
868,868,0,53,896
869,869,0,53,-379
870,870,0,53,210
871,871,0,53,-572
872,872,0,53,244
873,873,0,43,748
874,874,0,43,-12
875,875,0,43,-88
876,876,0,43,-618
877,877,0,43,-57
878,878,0,43,-857
879,879,0,43,211
880,880,0,43,-110
881,881,0,43,758
882,882,0,43,146
883,883,0,15,-553
884,884,0,15,-521
885,885,0,15,907
886,886,0,15,645
887,887,0,15,-271
888,888,0,15,-280
889,889,0,15,397
890,890,0,15,477
891,891,0,15,-298
892,892,0,15,-266
893,893,0,-19,-23
894,894,0,-19,-307
895,895,0,-19,-82
896,896,0,-19,197
897,897,0,-19,-361
898,898,0,-19,435
899,899,0,-19,140
900,900,0,-19,-280
901,901,0,-19,184
902,902,0,-19,-90
903,903,0,-46,-333
904,904,0,-46,-579
905,905,0,-46,151
906,906,0,-46,-369
907,907,0,-46,-333
908,908,0,-46,-117
909,909,0,-46,399
910,910,0,-46,-263
911,911,0,-46,145
912,912,0,-46,397
913,913,0,-56,-30
914,914,0,-56,696
915,915,0,-56,-49
916,916,0,-56,-279
917,917,0,-56,-17
918,918,0,-56,-1034
919,919,0,-56,-274
920,920,0,-56,-568
921,921,0,-56,476
922,922,0,-56,252
923,923,0,-43,217
924,924,0,-43,-364
925,925,0,-43,-68
926,926,0,-43,668
927,927,0,-43,190
928,928,0,-43,249
929,929,0,-43,238
930,930,0,-43,255
931,931,0,-43,-594
932,932,0,-43,-584
933,933,0,-13,225
934,934,0,-13,-102
935,935,0,-13,688
936,936,0,-13,-331
937,937,0,-13,985
938,938,0,-13,-30
939,939,0,-13,-35
940,940,0,-13,-80
941,941,0,-13,-303
942,942,0,-13,130
943,943,0,23,-322
944,944,0,23,155
945,945,0,23,162
946,946,0,23,-124
947,947,0,23,224
948,948,0,23,-87
949,949,0,23,-124
950,950,0,23,745
951,951,0,23,472
952,952,0,23,253
953,953,0,50,-629
954,954,0,50,-268
955,955,0,50,-84
956,956,0,50,458
957,957,0,50,-263
958,958,0,50,707
959,959,0,50,235
960,960,0,50,-631
961,961,0,50,-9
962,962,0,50,-813
963,963,0,58,223
964,964,0,58,209
965,965,0,58,719
966,966,0,58,208
967,967,0,58,714
968,968,0,58,-605
969,969,0,58,-30
970,970,0,58,153
971,971,0,58,-96
972,972,0,58,422
973,973,0,42,-611
974,974,0,42,476
975,975,0,42,-40
976,976,0,42,-620
977,977,0,42,-286
978,978,0,42,-636
979,979,0,42,505
980,980,0,42,-621
981,981,0,42,221
982,982,0,42,403
983,983,0,10,251
984,984,0,10,132
985,985,0,10,133
986,986,0,10,-65
987,987,0,10,458
988,988,0,10,225
989,989,0,10,-48
990,990,0,10,201
991,991,0,10,-91
992,992,0,10,490
993,993,0,-27,-520
994,994,0,-27,-296
995,995,0,-27,-286
996,996,0,-27,210
997,997,0,-27,-124
998,998,0,-27,-282
999,999,0,-27,-298
1000,1000,0,-27,-334
1001,1001,0,-27,133
1002,1002,0,-27,-27
1003,1003,0,-54,-542
1004,1004,0,-54,-18
1005,1005,0,-54,-565
1006,1006,0,-54,154
1007,1007,0,-54,717
1008,1008,0,-54,479
1009,1009,0,-54,481
1010,1010,0,-54,-332
1011,1011,0,-54,502
1012,1012,0,-54,-541
1013,1013,0,-60,-533
1014,1014,0,-60,238
1015,1015,0,-60,234
1016,1016,0,-60,148
1017,1017,0,-60,-57
1018,1018,0,-60,508
1019,1019,0,-60,230
1020,1020,0,-60,-378
1021,1021,0,-60,160
1022,1022,0,-60,-379
1023,1023,0,-42,394
1024,1024,0,-42,-68
1025,1025,0,-42,-105
1026,1026,0,-42,-302
1027,1027,0,-42,-76
1028,1028,0,-42,444
1029,1029,0,-42,-101
1030,1030,0,-42,-101
1031,1031,0,-42,927
1032,1032,0,-42,483
1033,1033,0,-7,-310
1034,1034,0,-7,-578
1035,1035,0,-7,412
1036,1036,0,-7,-846
1037,1037,0,-7,201
1038,1038,0,-7,-46
1039,1039,0,-7,-540
1040,1040,0,-7,744
1041,1041,0,-7,-371
1042,1042,0,-7,-118
1043,1043,0,31,-6
1044,1044,0,31,209
1045,1045,0,31,173
1046,1046,0,31,-267
1047,1047,0,31,-17
1048,1048,0,31,502
1049,1049,0,31,129
1050,1050,0,31,401
1051,1051,0,31,-358
1052,1052,0,31,-377
1053,1053,0,58,754
1054,1054,0,58,-577
1055,1055,0,58,-344
1056,1056,0,58,-849
1057,1057,0,58,-636
1058,1058,0,58,220
1059,1059,0,58,251
1060,1060,0,58,247
1061,1061,0,58,-113
1062,1062,0,58,394
1063,1063,0,62,-323
1064,1064,0,62,-1031
1065,1065,0,62,-582
1066,1066,0,62,-356
1067,1067,0,62,-270
1068,1068,0,62,719
1069,1069,0,62,721
1070,1070,0,62,146
1071,1071,0,62,229
1072,1072,0,62,-571
1073,1073,0,41,-103
1074,1074,0,41,438
1075,1075,0,41,-128
1076,1076,0,41,480
1077,1077,0,41,-102
1078,1078,0,41,152
1079,1079,0,41,649
1080,1080,0,41,-3
1081,1081,0,41,500
1082,1082,0,41,226
1083,1083,0,4,175
1084,1084,0,4,247
1085,1085,0,4,696
1086,1086,0,4,-43
1087,1087,0,4,669
1088,1088,0,4,195
1089,1089,0,4,-48
1090,1090,0,4,450
1091,1091,0,4,-114
1092,1092,0,4,-104
1093,1093,0,-35,726
1094,1094,0,-35,-635
1095,1095,0,-35,422
1096,1096,0,-35,495
1097,1097,0,-35,385
1098,1098,0,-35,-625
1099,1099,0,-35,420
1100,1100,0,-35,-266
1101,1101,0,-35,467
1102,1102,0,-35,-356
1103,1103,0,-61,436
1104,1104,0,-61,765
1105,1105,0,-61,182
1106,1106,0,-61,-30
1107,1107,0,-61,682
1108,1108,0,-61,-119
1109,1109,0,-61,430
1110,1110,0,-61,-359
1111,1111,0,-61,-269
